
**** 04/01/21 16:55:17 ****** PSpice Lite (October 2012) ****** ID# 10813 ****

 ** Profile: "SCHEMATIC1-Lab 5"  [ C:\Program Files\OrCAD\OrCAD_16.6_Lite\tools\capture\Lab 5-PSpiceFiles\SCHEMATIC1\Lab 5.sim ] 


 ****     CIRCUIT DESCRIPTION


******************************************************************************




** Creating circuit file "Lab 5.cir" 
** WARNING: THIS AUTOMATICALLY GENERATED FILE MAY BE OVERWRITTEN BY SUBSEQUENT SIMULATIONS

*Libraries: 
* Profile Libraries :
* Local Libraries :
* From [PSPICE NETLIST] section of C:\Users\Family\AppData\Roaming\SPB_16.6\cdssetup\OrCAD_PSpice/16.6.0/PSpice.ini file:
.lib "nomd.lib" 

*Analysis directives: 
.OPTIONS ADVCONV
.PROBE64 V(alias(*)) I(alias(*)) W(alias(*)) D(alias(*)) NOISE(alias(*)) 
.INC "..\SCHEMATIC1.net" 



**** INCLUDING SCHEMATIC1.net ****
* source LAB 5
V_V1         N00129 0 10Vdc
V_V2         N00151 0 5Vdc
R_R1         N00129 N00495  3.3k TC=0,0 
R_R2         0 N00495  1k TC=0,0 
R_R3         N00495 N00151  4.7k TC=0,0 

**** RESUMING "Lab 5.cir" ****
.END

**** 04/01/21 16:55:17 ****** PSpice Lite (October 2012) ****** ID# 10813 ****

 ** Profile: "SCHEMATIC1-Lab 5"  [ C:\Program Files\OrCAD\OrCAD_16.6_Lite\tools\capture\Lab 5-PSpiceFiles\SCHEMATIC1\Lab 5.sim ] 


 ****     SMALL SIGNAL BIAS SOLUTION       TEMPERATURE =   27.000 DEG C


******************************************************************************



 NODE   VOLTAGE     NODE   VOLTAGE     NODE   VOLTAGE     NODE   VOLTAGE


(N00129)   10.0000 (N00151)    5.0000 (N00495)    2.7010 




    VOLTAGE SOURCE CURRENTS
    NAME         CURRENT

    V_V1        -2.212E-03
    V_V2        -4.892E-04

    TOTAL POWER DISSIPATION   2.46E-02  WATTS



          JOB CONCLUDED

**** 04/01/21 16:55:17 ****** PSpice Lite (October 2012) ****** ID# 10813 ****

 ** Profile: "SCHEMATIC1-Lab 5"  [ C:\Program Files\OrCAD\OrCAD_16.6_Lite\tools\capture\Lab 5-PSpiceFiles\SCHEMATIC1\Lab 5.sim ] 


 ****     JOB STATISTICS SUMMARY


******************************************************************************



  Total job time (using Solver 1)   =         .03
