
**** 04/01/21 15:16:02 ****** PSpice Lite (October 2012) ****** ID# 10813 ****

 ** Profile: "SCHEMATIC1-Lab 111"  [ C:\Program Files\OrCAD\OrCAD_16.6_Lite\tools\capture\Lab 1-PSpiceFiles\SCHEMATIC1\Lab 111.sim ] 


 ****     CIRCUIT DESCRIPTION


******************************************************************************




** Creating circuit file "Lab 111.cir" 
** WARNING: THIS AUTOMATICALLY GENERATED FILE MAY BE OVERWRITTEN BY SUBSEQUENT SIMULATIONS

*Libraries: 
* Profile Libraries :
* Local Libraries :
* From [PSPICE NETLIST] section of C:\Users\Family\AppData\Roaming\SPB_16.6\cdssetup\OrCAD_PSpice/16.6.0/PSpice.ini file:
.lib "nomd.lib" 

*Analysis directives: 
.TRAN  0 1000ns 0 
.OPTIONS ADVCONV
.PROBE64 V(alias(*)) I(alias(*)) W(alias(*)) D(alias(*)) NOISE(alias(*)) 
.INC "..\SCHEMATIC1.net" 



**** INCLUDING SCHEMATIC1.net ****
* source LAB 1
V_V1         N00092 0 15Vdc
R_R1         N00092 N01122  3.3k TC=0,0 
R_R2         N01122 N01126  4.7k TC=0,0 
R_R3         0 N01126  5.6k TC=0,0 

**** RESUMING "Lab 111.cir" ****
.END

**** 04/01/21 15:16:02 ****** PSpice Lite (October 2012) ****** ID# 10813 ****

 ** Profile: "SCHEMATIC1-Lab 111"  [ C:\Program Files\OrCAD\OrCAD_16.6_Lite\tools\capture\Lab 1-PSpiceFiles\SCHEMATIC1\Lab 111.sim ] 


 ****     INITIAL TRANSIENT SOLUTION       TEMPERATURE =   27.000 DEG C


******************************************************************************



 NODE   VOLTAGE     NODE   VOLTAGE     NODE   VOLTAGE     NODE   VOLTAGE


(N00092)   15.0000 (N01122)   11.3600 (N01126)    6.1765 




    VOLTAGE SOURCE CURRENTS
    NAME         CURRENT

    V_V1        -1.103E-03

    TOTAL POWER DISSIPATION   1.65E-02  WATTS



          JOB CONCLUDED

**** 04/01/21 15:16:02 ****** PSpice Lite (October 2012) ****** ID# 10813 ****

 ** Profile: "SCHEMATIC1-Lab 111"  [ C:\Program Files\OrCAD\OrCAD_16.6_Lite\tools\capture\Lab 1-PSpiceFiles\SCHEMATIC1\Lab 111.sim ] 


 ****     JOB STATISTICS SUMMARY


******************************************************************************



  Total job time (using Solver 1)   =         .05
