
**** 03/24/21 12:45:19 ****** PSpice Lite (October 2012) ****** ID# 10813 ****

 ** Profile: "SCHEMATIC1-Lab 3"  [ C:\Program Files\OrCAD\OrCAD_16.6_Lite\tools\capture\lab 3-pspicefiles\schematic1\lab 3.sim ] 


 ****     CIRCUIT DESCRIPTION


******************************************************************************




** Creating circuit file "Lab 3.cir" 
** WARNING: THIS AUTOMATICALLY GENERATED FILE MAY BE OVERWRITTEN BY SUBSEQUENT SIMULATIONS

*Libraries: 
* Profile Libraries :
* Local Libraries :
* From [PSPICE NETLIST] section of C:\Users\Family\AppData\Roaming\SPB_16.6\cdssetup\OrCAD_PSpice/16.6.0/PSpice.ini file:
.lib "nomd.lib" 

*Analysis directives: 
.OPTIONS ADVCONV
.PROBE64 V(alias(*)) I(alias(*)) W(alias(*)) D(alias(*)) NOISE(alias(*)) 
.INC "..\SCHEMATIC1.net" 



**** INCLUDING SCHEMATIC1.net ****
* source LAB 3
V_V1         N01159 0 10Vdc
R_R1         N01183 N01159  0.56k TC=0,0 
R_R2         0 N01183  0.56k TC=0,0 
R_R3         0 N01183  10k TC=0,0 

**** RESUMING "Lab 3.cir" ****
.END

**** 03/24/21 12:45:19 ****** PSpice Lite (October 2012) ****** ID# 10813 ****

 ** Profile: "SCHEMATIC1-Lab 3"  [ C:\Program Files\OrCAD\OrCAD_16.6_Lite\tools\capture\lab 3-pspicefiles\schematic1\lab 3.sim ] 


 ****     SMALL SIGNAL BIAS SOLUTION       TEMPERATURE =   27.000 DEG C


******************************************************************************



 NODE   VOLTAGE     NODE   VOLTAGE     NODE   VOLTAGE     NODE   VOLTAGE


(N01159)   10.0000 (N01183)    4.8638 




    VOLTAGE SOURCE CURRENTS
    NAME         CURRENT

    V_V1        -9.172E-03

    TOTAL POWER DISSIPATION   9.17E-02  WATTS



          JOB CONCLUDED

**** 03/24/21 12:45:19 ****** PSpice Lite (October 2012) ****** ID# 10813 ****

 ** Profile: "SCHEMATIC1-Lab 3"  [ C:\Program Files\OrCAD\OrCAD_16.6_Lite\tools\capture\lab 3-pspicefiles\schematic1\lab 3.sim ] 


 ****     JOB STATISTICS SUMMARY


******************************************************************************



  Total job time (using Solver 1)   =         .05
