
**** 03/17/21 22:04:33 ****** PSpice Lite (October 2012) ****** ID# 10813 ****

 ** Profile: "SCHEMATIC1-Lab 2"  [ C:\Program Files\OrCAD\OrCAD_16.6_Lite\tools\capture\lab 2-pspicefiles\schematic1\lab 2.sim ] 


 ****     CIRCUIT DESCRIPTION


******************************************************************************




** Creating circuit file "Lab 2.cir" 
** WARNING: THIS AUTOMATICALLY GENERATED FILE MAY BE OVERWRITTEN BY SUBSEQUENT SIMULATIONS

*Libraries: 
* Profile Libraries :
* Local Libraries :
* From [PSPICE NETLIST] section of C:\Users\Family\AppData\Roaming\SPB_16.6\cdssetup\OrCAD_PSpice/16.6.0/PSpice.ini file:
.lib "nomd.lib" 

*Analysis directives: 
.OPTIONS ADVCONV
.PROBE64 V(alias(*)) I(alias(*)) W(alias(*)) D(alias(*)) NOISE(alias(*)) 
.INC "..\SCHEMATIC1.net" 



**** INCLUDING SCHEMATIC1.net ****
* source LAB 2
R_R2         0 N04264  10k TC=0,0 
R_R6         0 N04268  1k TC=0,0 
R_R1         N04256 N04264  1k TC=0,0 
V_E         N04256 0 12Vdc
R_R4         0 N04286  3.3k TC=0,0 
R_R3         N04264 N04286  4.7k TC=0,0 
R_R5         N04286 N04268  1k TC=0,0 

**** RESUMING "Lab 2.cir" ****
.END

**** 03/17/21 22:04:33 ****** PSpice Lite (October 2012) ****** ID# 10813 ****

 ** Profile: "SCHEMATIC1-Lab 2"  [ C:\Program Files\OrCAD\OrCAD_16.6_Lite\tools\capture\lab 2-pspicefiles\schematic1\lab 2.sim ] 


 ****     SMALL SIGNAL BIAS SOLUTION       TEMPERATURE =   27.000 DEG C


******************************************************************************



 NODE   VOLTAGE     NODE   VOLTAGE     NODE   VOLTAGE     NODE   VOLTAGE


(N04256)   12.0000 (N04264)    9.4622 (N04268)     .9910 (N04286)    1.9819 




    VOLTAGE SOURCE CURRENTS
    NAME         CURRENT

    V_E         -2.538E-03

    TOTAL POWER DISSIPATION   3.05E-02  WATTS



          JOB CONCLUDED

**** 03/17/21 22:04:33 ****** PSpice Lite (October 2012) ****** ID# 10813 ****

 ** Profile: "SCHEMATIC1-Lab 2"  [ C:\Program Files\OrCAD\OrCAD_16.6_Lite\tools\capture\lab 2-pspicefiles\schematic1\lab 2.sim ] 


 ****     JOB STATISTICS SUMMARY


******************************************************************************



  Total job time (using Solver 1)   =         .02
